
T39BC 000:083 SEGGER J-Link V4.68a Log File (0001ms, 0083ms total)
T39BC 000:083 DLL Compiled: Apr 12 2013 13:26:50 (0001ms, 0083ms total)
T39BC 000:083 Logging started @ 2015-07-19 17:22 (0002ms, 0084ms total)
T39BC 000:085 JLINK_SetWarnOutHandler(...) (0000ms, 0084ms total)
T39BC 000:085 JLINK_OpenEx(...)
Firmware: J-Link ARM V8 compiled Nov 14 2012 22:34:52
Hardware: V8.00
S/N: 17935099
Feature(s): RDI,FlashDL,FlashBP,JFlash  returns O.K. (0016ms, 0100ms total)
T39BC 000:101 JLINK_SetErrorOutHandler(...) (0000ms, 0100ms total)
T39BC 000:101 JLINK_ExecCommand("ProjectFile = "E:\easycookClient\stmBLE_liquid\V1\Project\Pro\JLinkSettings.ini"", ...)  returns 0x00 (0002ms, 0102ms total)
T39BC 000:103 JLINK_ExecCommand("Device = STM32F103RB", ...)
                JLINK_AddMirrorAreaEx(Addr = 0x00000000, Size = 0x00000000) (0000ms, 0000ms total)
              Device "STM32F103RB" selected (128 KB flash, 20 KB RAM).  returns 0x00 (0000ms, 0102ms total)
T39BC 000:103 JLINK_ExecCommand("DisableConnectionTimeout", ...)  returns 0x00 (0000ms, 0102ms total)
T39BC 000:103 JLINK_GetHardwareVersion()  returns 0x13880 (0000ms, 0102ms total)
T39BC 000:103 JLINK_GetDLLVersion()  returns 46801 (0000ms, 0102ms total)
T39BC 000:103 JLINK_GetFirmwareString(...) (0001ms, 0103ms total)
T39BC 000:104 JLINK_GetDLLVersion()  returns 46801 (0000ms, 0103ms total)
T39BC 000:104 JLINK_GetCompileDateTime() (0000ms, 0103ms total)
T39BC 000:104 JLINK_GetFirmwareString(...) (0000ms, 0103ms total)
T39BC 000:105 JLINK_GetHardwareVersion()  returns 0x13880 (0000ms, 0103ms total)
T39BC 000:105 JLINK_TIF_Select(JLINKARM_TIF_SWD)  returns 0x00 (0001ms, 0104ms total)
T39BC 000:106 JLINK_SetSpeed(5000) (0001ms, 0105ms total)
T39BC 000:107 JLINK_GetId() >0x108 TIF>Found SWD-DP with ID 0x1BA01477 >0x0D TIF> >0x28 TIF> >0x0D TIF> >0x28 TIF> >0x0D TIF> >0x21 TIF> >0x0D TIF> >0x28 TIF> >0x0D TIF> >0x28 TIF> >0x0D TIF> >0x28 TIF> >0x0D TIF> >0x21 TIF> >0x0D TIF> >0x21 TIF> >0x0D TIF> >0x28 TIF> >0x0D TIF> >0x21 TIF> >0x0D TIF> >0x21 TIF> >0x108 TIF>Found SWD-DP with ID 0x1BA01477 >0x0D TIF> >0x21 TIF> >0x0D TIF> >0x28 TIF> >0x0D TIF> >0x28 TIF> >0x0D TIF> >0x21 TIF> >0x0D TIF> >0x21 TIF> >0x0D TIF> >0x28 TIF> >0x0D TIF> >0x21 TIF>
 >0x0D TIF> >0x21 TIF> >0x0D TIF> >0x21 TIF> >0x0D TIF> >0x21 TIF> >0x0D TIF> >0x21 TIF> >0x0D TIF> >0x28 TIF> >0x0D TIF> >0x28 TIF> >0x0D TIF> >0x21 TIF> >0x0D TIF> >0x21 TIF> >0x0D TIF> >0x28 TIF> >0x0D TIF> >0x21 TIF> >0x0D TIF> >0x21 TIF> >0x0D TIF> >0x28 TIF> >0x0D TIF> >0x28 TIF> >0x0D TIF> >0x28 TIF> >0x0D TIF> >0x21 TIF> >0x0D TIF> >0x21 TIF> >0x0D TIF> >0x28 TIF> >0x0D TIF> >0x28 TIF> >0x0D TIF> >0x28 TIF> >0x0D TIF> >0x21 TIF> >0x0D TIF> >0x21 TIF> >0x0D TIF> >0x21 TIF>TPIU fitted. >0x0D TIF>
 >0x28 TIF> >0x0D TIF> >0x21 TIF> >0x0D TIF> >0x21 TIF> >0x0D TIF> >0x28 TIF> >0x0D TIF> >0x21 TIF> >0x0D TIF> >0x21 TIF>FPUnit: 6 code (BP) slots and 2 literal slots >0x0D TIF> >0x28 TIF> >0x0D TIF> >0x21 TIF> >0x0D TIF> >0x21 TIF> >0x0D TIF> >0x28 TIF> >0x0D TIF> >0x21 TIF> >0x0D TIF> >0x21 TIF> >0x0D TIF> >0x28 TIF> >0x0D TIF> >0x21 TIF> >0x0D TIF> >0x21 TIF> >0x0D TIF> >0x28 TIF> >0x0D TIF> >0x21 TIF> >0x0D TIF> >0x21 TIF>Found Cortex-M3 r1p1, Little endian. >0x0D TIF> >0x21 TIF>  returns 0x1BA01477
 (0053ms, 0158ms total)
T39BC 000:160 JLINK_GetDeviceFamily()  returns 3 (0000ms, 0158ms total)
T39BC 000:161 JLINK_ReadMem (0xE00FFFF0, 0x0010 Bytes, ...) -- CPU is running -- CPU_ReadMem(16 bytes @ 0xE00FFFF0) -- Data:  0D 00 00 00 10 00 00 00 05 00 00 00 B1 00 00 00  returns 0x00 (0001ms, 0159ms total)
T39BC 000:162 JLINK_ReadMem (0xE00FFFD0, 0x0020 Bytes, ...) -- CPU is running -- CPU_ReadMem(32 bytes @ 0xE00FFFD0) -- Data:  00 00 00 00 00 00 00 00 00 00 00 00 00 00 00 00 ...  returns 0x00 (0000ms, 0159ms total)
T39BC 000:162 JLINK_ReadMem (0xE00FF000, 0x0018 Bytes, ...) -- CPU is running -- CPU_ReadMem(24 bytes @ 0xE00FF000) -- Data:  03 F0 F0 FF 03 20 F0 FF 03 30 F0 FF 03 10 F0 FF ...  returns 0x00 (0001ms, 0160ms total)
T39BC 000:163 JLINK_ReadMemU32(0xE000ED00, 0x0001 Items, ...) -- CPU is running -- CPU_ReadMem(4 bytes @ 0xE000ED00) -- Data:  31 C2 1F 41  returns 0x01 (0001ms, 0161ms total)
T39BC 000:164 JLINK_SetResetType(JLINKARM_RESET_TYPE_NORMAL)  returns JLINKARM_RESET_TYPE_NORMAL (0000ms, 0161ms total)
T39BC 000:164 JLINK_Reset() -- CPU is running -- CPU_WriteMem(4 bytes @ 0xE000EDF0) -- CPU is running -- CPU_WriteMem(4 bytes @ 0xE000EDFC) >0x35 TIF> -- CPU is running -- CPU_WriteMem(4 bytes @ 0xE000ED0C) -- CPU is running -- CPU_ReadMem(4 bytes @ 0xE000EDF0) -- CPU is running -- CPU_ReadMem(4 bytes @ 0xE000EDF0) -- CPU is running -- CPU_WriteMem(4 bytes @ 0xE000EDF0) -- CPU is running -- CPU_WriteMem(4 bytes @ 0xE000EDFC) -- CPU is running -- CPU_ReadMem(4 bytes @ 0xE000EDF0)
 -- CPU_WriteMem(4 bytes @ 0xE0002000) (0016ms, 0177ms total)
T39BC 000:180 JLINK_ReadReg(R15)  returns 0x0800023C (0000ms, 0177ms total)
T39BC 000:180 JLINK_ReadReg(XPSR)  returns 0x01000000 (0000ms, 0177ms total)
T39BC 000:180 JLINK_Halt()  returns 0x00 (0000ms, 0177ms total)
T39BC 000:180 JLINK_IsHalted()  returns TRUE (0000ms, 0177ms total)
T39BC 000:180 JLINK_ReadMemU32(0xE000EDF0, 0x0001 Items, ...) -- CPU_ReadMem(4 bytes @ 0xE000EDF0) -- Data:  03 00 03 00  returns 0x01 (0001ms, 0178ms total)
T39BC 000:181 JLINK_WriteU32(0xE000EDF0, 0xA05F0003) -- CPU_WriteMem(4 bytes @ 0xE000EDF0)  returns 0x00 (0000ms, 0178ms total)
T39BC 000:181 JLINK_WriteU32(0xE000EDFC, 0x01000000) -- CPU_WriteMem(4 bytes @ 0xE000EDFC)  returns 0x00 (0001ms, 0179ms total)
T39BC 000:183 JLINK_GetHWStatus(...)  returns 0x00 (0000ms, 0179ms total)
T39BC 000:183 JLINK_GetNumBPUnits(Type = 0xFFFFFF00)  returns 0x06 (0001ms, 0180ms total)
T39BC 000:184 JLINK_GetNumBPUnits(Type = 0xF0)  returns 0x2000 (0000ms, 0180ms total)
T39BC 000:184 JLINK_GetNumWPUnits()  returns 0x04 (0000ms, 0180ms total)
T39BC 000:184 JLINK_GetSpeed()  returns 0xFA0 (0000ms, 0180ms total)
T39BC 000:184 JLINK_ReadMemU32(0xE000E004, 0x0001 Items, ...) -- CPU_ReadMem(4 bytes @ 0xE000E004) -- Data:  01 00 00 00  returns 0x01 (0001ms, 0181ms total)
T39BC 000:185 JLINK_ReadMemU32(0xE000E004, 0x0001 Items, ...) -- CPU_ReadMem(4 bytes @ 0xE000E004) -- Data:  01 00 00 00  returns 0x01 (0000ms, 0181ms total)
T39BC 000:185 JLINK_WriteMem(0xE0001000, 0x001C Bytes, ...) -- Data:  01 00 00 00 00 00 00 00 00 00 00 00 00 00 00 00 ... -- CPU_WriteMem(28 bytes @ 0xE0001000)  returns 0x1C (0001ms, 0182ms total)
T39BC 000:186 JLINK_ReadMem (0xE0001000, 0x001C Bytes, ...) -- CPU_ReadMem(28 bytes @ 0xE0001000) -- Data:  01 00 00 40 00 00 00 00 00 00 00 00 00 00 00 00 ...  returns 0x00 (0001ms, 0183ms total)
T39BC 000:187 JLINK_ReadReg(R15)  returns 0x0800023C (0000ms, 0183ms total)
T39BC 000:187 JLINK_ReadReg(XPSR)  returns 0x01000000 (0000ms, 0183ms total)
T39BC 000:355 JLINK_SetResetType(JLINKARM_RESET_TYPE_NORMAL)  returns JLINKARM_RESET_TYPE_NORMAL (0000ms, 0183ms total)
T39BC 000:355 JLINK_Reset() -- CPU_WriteMem(4 bytes @ 0xE000EDF0) -- CPU_WriteMem(4 bytes @ 0xE000EDFC) >0x35 TIF> -- CPU_WriteMem(4 bytes @ 0xE000ED0C) -- CPU_ReadMem(4 bytes @ 0xE000EDF0) -- CPU_ReadMem(4 bytes @ 0xE000EDF0) -- CPU_WriteMem(4 bytes @ 0xE000EDF0) -- CPU_WriteMem(4 bytes @ 0xE000EDFC) -- CPU is running -- CPU_ReadMem(4 bytes @ 0xE000EDF0) -- CPU_WriteMem(4 bytes @ 0xE0002000) (0017ms, 0200ms total)
T39BC 000:372 JLINK_ReadReg(R15)  returns 0x0800023C (0000ms, 0200ms total)
T39BC 000:372 JLINK_ReadReg(XPSR)  returns 0x01000000 (0000ms, 0200ms total)
T39BC 000:375 JLINK_ReadMem (0x0800023C, 0x003C Bytes, ...) -- CPU_ReadMem(128 bytes @ 0x08000200) -- Updating C cache (128 bytes @ 0x08000200) -- Read from C cache (60 bytes @ 0x0800023C) -- Data:  09 48 80 47 09 48 00 47 FE E7 FE E7 FE E7 FE E7 ...  returns 0x00 (0002ms, 0202ms total)
T4134 006:253 JLINK_SetBPEx(Addr = 0x08004E5E, Type = 0xFFFFFFF2)  returns 0x00000001 (0000ms, 0202ms total)
T4134 006:253 JLINK_Go() -- CPU_WriteMem(4 bytes @ 0xE0002008) -- CPU_WriteMem(4 bytes @ 0xE000200C) -- CPU_WriteMem(4 bytes @ 0xE0002010) -- CPU_WriteMem(4 bytes @ 0xE0002014) -- CPU_WriteMem(4 bytes @ 0xE0002018) -- CPU_WriteMem(4 bytes @ 0xE000201C) (0005ms, 0207ms total)
T4134 006:358 JLINK_IsHalted()  returns FALSE (0000ms, 0207ms total)
T4134 006:458 JLINK_IsHalted()  returns FALSE (0000ms, 0207ms total)
T4134 006:558 JLINK_IsHalted()  returns FALSE (0000ms, 0207ms total)
T4134 006:658 JLINK_IsHalted()  returns FALSE (0000ms, 0207ms total)
T4134 006:758 JLINK_IsHalted()  returns FALSE (0002ms, 0209ms total)
T4134 006:860 JLINK_ReadMemU32(0xE0001004, 0x0001 Items, ...) -- CPU is running -- CPU_ReadMem(4 bytes @ 0xE0001004) -- Data:  DF 9B 95 02  returns 0x01 (0000ms, 0207ms total)
T4134 006:862 JLINK_IsHalted()  returns FALSE (0001ms, 0208ms total)
T4134 006:963 JLINK_IsHalted()  returns FALSE (0002ms, 0209ms total)
T4134 007:065 JLINK_IsHalted()  returns FALSE (0000ms, 0207ms total)
T4134 007:165 JLINK_IsHalted()  returns FALSE (0000ms, 0207ms total)
T4134 007:265 JLINK_IsHalted()  returns FALSE (0001ms, 0208ms total)
T4134 007:366 JLINK_ReadMemU32(0xE0001004, 0x0001 Items, ...) -- CPU is running -- CPU_ReadMem(4 bytes @ 0xE0001004) -- Data:  9B 8A C1 04  returns 0x01 (0000ms, 0207ms total)
T4134 007:367 JLINK_IsHalted()  returns FALSE (0001ms, 0208ms total)
T4134 007:468 JLINK_IsHalted()  returns FALSE (0000ms, 0207ms total)
T4134 007:568 JLINK_IsHalted()  returns FALSE (0000ms, 0207ms total)
T4134 007:668 JLINK_IsHalted()  returns FALSE (0000ms, 0207ms total)
T4134 007:768 JLINK_IsHalted()  returns FALSE (0000ms, 0207ms total)
T4134 007:868 JLINK_IsHalted()  returns FALSE (0000ms, 0207ms total)
T4134 007:968 JLINK_ReadMemU32(0xE0001004, 0x0001 Items, ...) -- CPU is running -- CPU_ReadMem(4 bytes @ 0xE0001004) -- Data:  D9 F7 56 07  returns 0x01 (0000ms, 0207ms total)
T4134 007:970 JLINK_IsHalted()  returns FALSE (0001ms, 0208ms total)
T4134 008:071 JLINK_IsHalted()  returns FALSE (0000ms, 0207ms total)
T4134 008:171 JLINK_IsHalted()  returns FALSE (0000ms, 0207ms total)
T4134 008:271 JLINK_IsHalted()  returns FALSE (0000ms, 0207ms total)
T4134 008:372 JLINK_IsHalted()  returns FALSE (0000ms, 0207ms total)
T4134 008:472 JLINK_ReadMemU32(0xE0001004, 0x0001 Items, ...) -- CPU is running -- CPU_ReadMem(4 bytes @ 0xE0001004) -- Data:  E7 AF 80 09  returns 0x01 (0000ms, 0207ms total)
T4134 008:473 JLINK_IsHalted()  returns FALSE (0001ms, 0208ms total)
T4134 008:574 JLINK_IsHalted()  returns FALSE (0000ms, 0207ms total)
T4134 008:674 JLINK_IsHalted()  returns FALSE (0000ms, 0207ms total)
T4134 008:775 JLINK_IsHalted()  returns FALSE (0000ms, 0207ms total)
T4134 008:876 JLINK_IsHalted()  returns FALSE (0000ms, 0207ms total)
T4134 008:976 JLINK_IsHalted()  returns FALSE (0000ms, 0207ms total)
T4134 009:076 JLINK_ReadMemU32(0xE0001004, 0x0001 Items, ...) -- CPU is running -- CPU_ReadMem(4 bytes @ 0xE0001004) -- Data:  7F 74 18 0C  returns 0x01 (0000ms, 0207ms total)
T4134 009:078 JLINK_IsHalted()  returns FALSE (0000ms, 0207ms total)
T4134 009:178 JLINK_IsHalted()  returns FALSE (0000ms, 0207ms total)
T4134 009:278 JLINK_IsHalted()  returns FALSE (0001ms, 0208ms total)
T4134 009:381 JLINK_IsHalted()  returns FALSE (0001ms, 0208ms total)
T4134 009:482 JLINK_IsHalted()  returns FALSE (0000ms, 0207ms total)
T4134 009:582 JLINK_ReadMemU32(0xE0001004, 0x0001 Items, ...) -- CPU is running -- CPU_ReadMem(4 bytes @ 0xE0001004) -- Data:  F7 5F 44 0E  returns 0x01 (0000ms, 0207ms total)
T4134 009:583 JLINK_IsHalted()  returns FALSE (0001ms, 0208ms total)
T4134 009:684 JLINK_IsHalted()  returns FALSE (0000ms, 0207ms total)
T4134 009:785 JLINK_IsHalted()  returns FALSE (0001ms, 0208ms total)
T4134 009:886 JLINK_IsHalted()  returns FALSE (0000ms, 0207ms total)
T4134 009:986 JLINK_IsHalted()  returns FALSE (0001ms, 0208ms total)
T4134 010:087 JLINK_IsHalted()  returns FALSE (0000ms, 0207ms total)
T4134 010:187 JLINK_ReadMemU32(0xE0001004, 0x0001 Items, ...) -- CPU is running -- CPU_ReadMem(4 bytes @ 0xE0001004) -- Data:  23 0B E0 10  returns 0x01 (0003ms, 0210ms total)
T4134 010:191 JLINK_IsHalted()  returns FALSE (0000ms, 0210ms total)
T4134 010:291 JLINK_IsHalted()  returns FALSE (0001ms, 0211ms total)
T4134 010:392 JLINK_IsHalted()  returns FALSE (0000ms, 0210ms total)
T4134 010:492 JLINK_IsHalted()  returns FALSE (0000ms, 0210ms total)
T4134 010:592 JLINK_IsHalted()  returns FALSE (0000ms, 0210ms total)
T4134 010:692 JLINK_IsHalted()  returns FALSE (0000ms, 0210ms total)
T4134 010:792 JLINK_ReadMemU32(0xE0001004, 0x0001 Items, ...) -- CPU is running -- CPU_ReadMem(4 bytes @ 0xE0001004) -- Data:  1B E6 75 13  returns 0x01 (0000ms, 0210ms total)
T4134 010:793 JLINK_IsHalted()  returns FALSE (0001ms, 0211ms total)
T4134 010:894 JLINK_IsHalted()  returns FALSE (0000ms, 0210ms total)
T4134 010:994 JLINK_IsHalted()  returns FALSE (0000ms, 0210ms total)
T4134 011:095 JLINK_IsHalted()  returns FALSE (0001ms, 0211ms total)
T4134 011:196 JLINK_IsHalted()  returns FALSE (0000ms, 0210ms total)
T4134 011:296 JLINK_ReadMemU32(0xE0001004, 0x0001 Items, ...) -- CPU is running -- CPU_ReadMem(4 bytes @ 0xE0001004) -- Data:  5F 94 A0 15  returns 0x01 (0001ms, 0211ms total)
T4134 011:299 JLINK_IsHalted()  returns FALSE (0000ms, 0211ms total)
T4134 011:399 JLINK_IsHalted()  returns FALSE (0000ms, 0211ms total)
T4134 011:499 JLINK_IsHalted()  returns FALSE (0000ms, 0211ms total)
T4134 011:599 JLINK_IsHalted()  returns FALSE (0000ms, 0211ms total)
T4134 011:699 JLINK_IsHalted()  returns FALSE (0000ms, 0211ms total)
T4134 011:799 JLINK_IsHalted()  returns FALSE (0001ms, 0212ms total)
T4134 011:900 JLINK_ReadMemU32(0xE0001004, 0x0001 Items, ...) -- CPU is running -- CPU_ReadMem(4 bytes @ 0xE0001004) -- Data:  40 4C 37 18  returns 0x01 (0000ms, 0211ms total)
T4134 011:901 JLINK_IsHalted()  returns FALSE (0001ms, 0212ms total)
T4134 012:002 JLINK_IsHalted()  returns FALSE (0000ms, 0211ms total)
T4134 012:102 JLINK_IsHalted()  returns FALSE (0000ms, 0211ms total)
T4134 012:202 JLINK_IsHalted()  returns FALSE (0000ms, 0211ms total)
T4134 012:302 JLINK_IsHalted()  returns FALSE (0001ms, 0212ms total)
T4134 012:403 JLINK_ReadMemU32(0xE0001004, 0x0001 Items, ...) -- CPU is running -- CPU_ReadMem(4 bytes @ 0xE0001004) -- Data:  EB C8 60 1A  returns 0x01 (0005ms, 0216ms total)
T4134 012:410 JLINK_IsHalted()  returns FALSE (0000ms, 0216ms total)
T4134 012:510 JLINK_IsHalted()  returns FALSE (0000ms, 0216ms total)
T4134 012:611 JLINK_IsHalted()  returns FALSE (0000ms, 0216ms total)
T4134 012:711 JLINK_IsHalted()  returns FALSE (0000ms, 0216ms total)
T4134 012:811 JLINK_IsHalted()  returns TRUE (0003ms, 0219ms total)
T4134 012:814 JLINK_Halt()  returns 0x00 (0000ms, 0216ms total)
T4134 012:814 JLINK_IsHalted()  returns TRUE (0000ms, 0216ms total)
T4134 012:814 JLINK_IsHalted()  returns TRUE (0000ms, 0216ms total)
T4134 012:814 JLINK_IsHalted()  returns TRUE (0000ms, 0216ms total)
T4134 012:814 JLINK_ReadReg(R15)  returns 0x08004E5E (0000ms, 0216ms total)
T4134 012:814 JLINK_ReadReg(XPSR)  returns 0x61000000 (0000ms, 0216ms total)
T4134 012:814 JLINK_ClrBPEx(BPHandle = 0x00000001)  returns 0x00 (0000ms, 0216ms total)
T4134 012:814 JLINK_ReadMemU32(0xE000ED30, 0x0001 Items, ...) -- CPU_ReadMem(4 bytes @ 0xE000ED30) -- Data:  03 00 00 00  returns 0x01 (0001ms, 0217ms total)
T4134 012:815 JLINK_ReadMemU32(0xE0001028, 0x0001 Items, ...) -- CPU_ReadMem(4 bytes @ 0xE0001028) -- Data:  00 00 00 00  returns 0x01 (0000ms, 0217ms total)
T4134 012:815 JLINK_ReadMemU32(0xE0001038, 0x0001 Items, ...) -- CPU_ReadMem(4 bytes @ 0xE0001038) -- Data:  00 02 00 00  returns 0x01 (0001ms, 0218ms total)
T4134 012:816 JLINK_ReadMemU32(0xE0001048, 0x0001 Items, ...) -- CPU_ReadMem(4 bytes @ 0xE0001048) -- Data:  00 00 00 00  returns 0x01 (0001ms, 0219ms total)
T4134 012:817 JLINK_ReadMemU32(0xE0001058, 0x0001 Items, ...) -- CPU_ReadMem(4 bytes @ 0xE0001058) -- Data:  00 00 00 00  returns 0x01 (0000ms, 0219ms total)
T4134 012:817 JLINK_ReadReg(R0)  returns 0x20001FF0 (0000ms, 0219ms total)
T4134 012:817 JLINK_ReadReg(R1)  returns 0x20001FC0 (0000ms, 0219ms total)
T4134 012:817 JLINK_ReadReg(R2)  returns 0x200009F9 (0000ms, 0219ms total)
T4134 012:817 JLINK_ReadReg(R3)  returns 0x000000C1 (0001ms, 0220ms total)
T4134 012:818 JLINK_ReadReg(R4)  returns 0x20001FF0 (0000ms, 0220ms total)
T4134 012:818 JLINK_ReadReg(R5)  returns 0x00000000 (0000ms, 0220ms total)
T4134 012:818 JLINK_ReadReg(R6)  returns 0x00000000 (0000ms, 0220ms total)
T4134 012:818 JLINK_ReadReg(R7)  returns 0x00000000 (0000ms, 0220ms total)
T4134 012:818 JLINK_ReadReg(R8)  returns 0x00000000 (0000ms, 0220ms total)
T4134 012:818 JLINK_ReadReg(R9)  returns 0x20000160 (0000ms, 0220ms total)
T4134 012:818 JLINK_ReadReg(R10)  returns 0x08006CAC (0000ms, 0220ms total)
T4134 012:818 JLINK_ReadReg(R11)  returns 0x00000000 (0000ms, 0220ms total)
T4134 012:818 JLINK_ReadReg(R12)  returns 0x00000000 (0000ms, 0220ms total)
T4134 012:818 JLINK_ReadReg(R13)  returns 0x20001FD8 (0000ms, 0220ms total)
T4134 012:818 JLINK_ReadReg(R14)  returns 0x08001819 (0000ms, 0220ms total)
T4134 012:818 JLINK_ReadReg(R15)  returns 0x08004E5E (0000ms, 0220ms total)
T4134 012:818 JLINK_ReadReg(XPSR)  returns 0x61000000 (0000ms, 0220ms total)
T4134 012:818 JLINK_ReadReg(MSP)  returns 0x20001FD8 (0000ms, 0220ms total)
T4134 012:818 JLINK_ReadReg(PSP)  returns 0x20000800 (0000ms, 0220ms total)
T4134 012:818 JLINK_ReadReg(CFBP)  returns 0x00000000 (0000ms, 0220ms total)
T39BC 012:819 JLINK_ReadMem (0x20001FEC, 0x0004 Bytes, ...) -- CPU_ReadMem(64 bytes @ 0x20001FC0) -- Updating C cache (64 bytes @ 0x20001FC0) -- Read from C cache (4 bytes @ 0x20001FEC) -- Data:  19 18 00 08  returns 0x00 (0001ms, 0221ms total)
T39BC 012:822 JLINK_ReadMem (0x20001FD8, 0x0004 Bytes, ...) -- Read from C cache (4 bytes @ 0x20001FD8) -- Data:  58 10 00 20  returns 0x00 (0000ms, 0221ms total)
T39BC 012:822 JLINK_ReadMem (0x20001FDC, 0x0004 Bytes, ...) -- Read from C cache (4 bytes @ 0x20001FDC) -- Data:  00 00 00 00  returns 0x00 (0000ms, 0221ms total)
T39BC 012:822 JLINK_ReadMem (0x20001FE0, 0x0004 Bytes, ...) -- Read from C cache (4 bytes @ 0x20001FE0) -- Data:  00 00 00 00  returns 0x00 (0000ms, 0221ms total)
T39BC 012:822 JLINK_ReadMem (0x20001FE4, 0x0004 Bytes, ...) -- Read from C cache (4 bytes @ 0x20001FE4) -- Data:  00 00 00 00  returns 0x00 (0000ms, 0221ms total)
T39BC 012:822 JLINK_ReadMem (0x20001FE8, 0x0004 Bytes, ...) -- Read from C cache (4 bytes @ 0x20001FE8) -- Data:  00 00 00 00  returns 0x00 (0000ms, 0221ms total)
T39BC 012:823 JLINK_ReadMem (0x00000000, 0x0004 Bytes, ...)
                JLINK_ReadMemHW(0x00000000, 0x0004 Bytes, ...) -- CPU_ReadMem(4 bytes @ 0x00000000) -- Data:  40 20 00 20  returns 0x00 (0001ms, 0001ms total)
                JLINK_ReadMemHW(0x08000000, 0x0004 Bytes, ...) -- CPU_ReadMem(4 bytes @ 0x08000000) -- Data:  40 20 00 20  returns 0x00 (0000ms, 0001ms total)
                JLINK_WriteMemHW(0x00000000, 0x0004 Bytes, ...) -- Data:  01 00 01 00 -- CPU_WriteMem(4 bytes @ 0x00000000)  returns 0x04 (0001ms, 0002ms total)
                JLINK_ReadMemHW(0x00000000, 0x0004 Bytes, ...) -- CPU_ReadMem(4 bytes @ 0x00000000) -- Data:  40 20 00 20  returns 0x00 (0001ms, 0003ms total)
               -- MA0 is in flash -- Unmirror addr 0x00000000 -- CPU_ReadMem(64 bytes @ 0x08000000) -- Updating C cache (64 bytes @ 0x08000000) -- Read from C cache (4 bytes @ 0x08000000) -- Data:  40 20 00 20  returns 0x00 (0004ms, 0225ms total)
T39BC 012:831 JLINK_ReadMem (0x08004E5E, 0x0002 Bytes, ...) -- CPU_ReadMem(64 bytes @ 0x08004E40) -- Updating C cache (64 bytes @ 0x08004E40) -- Read from C cache (2 bytes @ 0x08004E5E) -- Data:  00 BF  returns 0x00 (0002ms, 0227ms total)
T39BC 012:833 JLINK_ReadMem (0x08004E60, 0x003C Bytes, ...) -- CPU_ReadMem(64 bytes @ 0x08004E80) -- Updating C cache (64 bytes @ 0x08004E80) -- Read from C cache (60 bytes @ 0x08004E60) -- Data:  10 E0 A8 19 20 71 20 46 61 68 FF F7 D0 FF 21 68 ...  returns 0x00 (0001ms, 0228ms total)
T39BC 028:357 JLINK_ReadMem (0x08004E5C, 0x003C Bytes, ...) -- Read from C cache (60 bytes @ 0x08004E5C) -- Data:  00 26 00 BF 10 E0 A8 19 20 71 20 46 61 68 FF F7 ...  returns 0x00 (0001ms, 0229ms total)
T4134 034:313 JLINK_Step() -- Read from C cache (2 bytes @ 0x08004E5E) -- Simulated  returns 0x00 (0001ms, 0230ms total)
T4134 034:314 JLINK_ReadReg(R15)  returns 0x08004E60 (0001ms, 0231ms total)
T4134 034:315 JLINK_ReadReg(XPSR)  returns 0x61000000 (0000ms, 0231ms total)
T4134 034:315 JLINK_ReadReg(R0)  returns 0x20001FF0 (0000ms, 0231ms total)
T4134 034:315 JLINK_ReadReg(R1)  returns 0x20001FC0 (0000ms, 0231ms total)
T4134 034:315 JLINK_ReadReg(R2)  returns 0x200009F9 (0000ms, 0231ms total)
T4134 034:315 JLINK_ReadReg(R3)  returns 0x000000C1 (0000ms, 0231ms total)
T4134 034:315 JLINK_ReadReg(R4)  returns 0x20001FF0 (0000ms, 0231ms total)
T4134 034:315 JLINK_ReadReg(R5)  returns 0x00000000 (0000ms, 0231ms total)
T4134 034:315 JLINK_ReadReg(R6)  returns 0x00000000 (0000ms, 0231ms total)
T4134 034:315 JLINK_ReadReg(R7)  returns 0x00000000 (0000ms, 0231ms total)
T4134 034:315 JLINK_ReadReg(R8)  returns 0x00000000 (0000ms, 0231ms total)
T4134 034:315 JLINK_ReadReg(R9)  returns 0x20000160 (0000ms, 0231ms total)
T4134 034:315 JLINK_ReadReg(R10)  returns 0x08006CAC (0000ms, 0231ms total)
T4134 034:315 JLINK_ReadReg(R11)  returns 0x00000000 (0000ms, 0231ms total)
T4134 034:315 JLINK_ReadReg(R12)  returns 0x00000000 (0000ms, 0231ms total)
T4134 034:315 JLINK_ReadReg(R13)  returns 0x20001FD8 (0000ms, 0231ms total)
T4134 034:315 JLINK_ReadReg(R14)  returns 0x08001819 (0000ms, 0231ms total)
T4134 034:315 JLINK_ReadReg(R15)  returns 0x08004E60 (0000ms, 0231ms total)
T4134 034:315 JLINK_ReadReg(XPSR)  returns 0x61000000 (0000ms, 0231ms total)
T4134 034:315 JLINK_ReadReg(MSP)  returns 0x20001FD8 (0000ms, 0231ms total)
T4134 034:315 JLINK_ReadReg(PSP)  returns 0x20000800 (0000ms, 0231ms total)
T4134 034:315 JLINK_ReadReg(CFBP)  returns 0x00000000 (0000ms, 0231ms total)
T39BC 034:318 JLINK_ReadMem (0x20001FEC, 0x0004 Bytes, ...) -- Read from C cache (4 bytes @ 0x20001FEC) -- Data:  19 18 00 08  returns 0x00 (0000ms, 0231ms total)
T39BC 034:318 JLINK_ReadMem (0x20001FD8, 0x0004 Bytes, ...) -- Read from C cache (4 bytes @ 0x20001FD8) -- Data:  58 10 00 20  returns 0x00 (0000ms, 0231ms total)
T39BC 034:318 JLINK_ReadMem (0x20001FDC, 0x0004 Bytes, ...) -- Read from C cache (4 bytes @ 0x20001FDC) -- Data:  00 00 00 00  returns 0x00 (0000ms, 0231ms total)
T39BC 034:318 JLINK_ReadMem (0x20001FE0, 0x0004 Bytes, ...) -- Read from C cache (4 bytes @ 0x20001FE0) -- Data:  00 00 00 00  returns 0x00 (0000ms, 0231ms total)
T39BC 034:318 JLINK_ReadMem (0x20001FE4, 0x0004 Bytes, ...) -- Read from C cache (4 bytes @ 0x20001FE4) -- Data:  00 00 00 00  returns 0x00 (0000ms, 0231ms total)
T39BC 034:318 JLINK_ReadMem (0x20001FE8, 0x0004 Bytes, ...) -- Read from C cache (4 bytes @ 0x20001FE8) -- Data:  00 00 00 00  returns 0x00 (0000ms, 0231ms total)
T39BC 034:318 JLINK_ReadMem (0x00000000, 0x0004 Bytes, ...) -- Unmirror addr 0x00000000 -- Read from C cache (4 bytes @ 0x08000000) -- Data:  40 20 00 20  returns 0x00 (0000ms, 0231ms total)
T39BC 034:320 JLINK_ReadMem (0x08004E60, 0x003C Bytes, ...) -- Read from C cache (60 bytes @ 0x08004E60) -- Data:  10 E0 A8 19 20 71 20 46 61 68 FF F7 D0 FF 21 68 ...  returns 0x00 (0000ms, 0231ms total)
T4134 036:035 JLINK_Step() -- Read from C cache (2 bytes @ 0x08004E60) -- Simulated  returns 0x00 (0002ms, 0233ms total)
T4134 036:037 JLINK_ReadReg(R15)  returns 0x08004E84 (0000ms, 0233ms total)
T4134 036:037 JLINK_ReadReg(XPSR)  returns 0x61000000 (0000ms, 0233ms total)
T4134 036:037 JLINK_Step() -- Read from C cache (2 bytes @ 0x08004E84) -- Simulated  returns 0x00 (0000ms, 0233ms total)
T4134 036:037 JLINK_ReadReg(R15)  returns 0x08004E86 (0000ms, 0233ms total)
T4134 036:037 JLINK_ReadReg(XPSR)  returns 0x81000000 (0000ms, 0233ms total)
T4134 036:037 JLINK_Step() -- Read from C cache (2 bytes @ 0x08004E86) -- Simulated  returns 0x00 (0000ms, 0233ms total)
T4134 036:037 JLINK_ReadReg(R15)  returns 0x08004E62 (0000ms, 0233ms total)
T4134 036:037 JLINK_ReadReg(XPSR)  returns 0x81000000 (0000ms, 0233ms total)
T4134 036:037 JLINK_ReadReg(R0)  returns 0x20001FF0 (0001ms, 0234ms total)
T4134 036:038 JLINK_ReadReg(R1)  returns 0x20001FC0 (0000ms, 0234ms total)
T4134 036:038 JLINK_ReadReg(R2)  returns 0x200009F9 (0000ms, 0234ms total)
T4134 036:038 JLINK_ReadReg(R3)  returns 0x000000C1 (0000ms, 0234ms total)
T4134 036:038 JLINK_ReadReg(R4)  returns 0x20001FF0 (0000ms, 0234ms total)
T4134 036:038 JLINK_ReadReg(R5)  returns 0x00000000 (0000ms, 0234ms total)
T4134 036:038 JLINK_ReadReg(R6)  returns 0x00000000 (0000ms, 0234ms total)
T4134 036:038 JLINK_ReadReg(R7)  returns 0x00000000 (0000ms, 0234ms total)
T4134 036:038 JLINK_ReadReg(R8)  returns 0x00000000 (0000ms, 0234ms total)
T4134 036:038 JLINK_ReadReg(R9)  returns 0x20000160 (0000ms, 0234ms total)
T4134 036:038 JLINK_ReadReg(R10)  returns 0x08006CAC (0000ms, 0234ms total)
T4134 036:038 JLINK_ReadReg(R11)  returns 0x00000000 (0000ms, 0234ms total)
T4134 036:038 JLINK_ReadReg(R12)  returns 0x00000000 (0000ms, 0234ms total)
T4134 036:038 JLINK_ReadReg(R13)  returns 0x20001FD8 (0000ms, 0234ms total)
T4134 036:038 JLINK_ReadReg(R14)  returns 0x08001819 (0000ms, 0234ms total)
T4134 036:038 JLINK_ReadReg(R15)  returns 0x08004E62 (0000ms, 0234ms total)
T4134 036:038 JLINK_ReadReg(XPSR)  returns 0x81000000 (0000ms, 0234ms total)
T4134 036:038 JLINK_ReadReg(MSP)  returns 0x20001FD8 (0000ms, 0234ms total)
T4134 036:038 JLINK_ReadReg(PSP)  returns 0x20000800 (0000ms, 0234ms total)
T4134 036:038 JLINK_ReadReg(CFBP)  returns 0x00000000 (0000ms, 0234ms total)
T39BC 036:040 JLINK_ReadMem (0x20001FEC, 0x0004 Bytes, ...) -- Read from C cache (4 bytes @ 0x20001FEC) -- Data:  19 18 00 08  returns 0x00 (0000ms, 0234ms total)
T39BC 036:040 JLINK_ReadMem (0x20001FD8, 0x0004 Bytes, ...) -- Read from C cache (4 bytes @ 0x20001FD8) -- Data:  58 10 00 20  returns 0x00 (0000ms, 0234ms total)
T39BC 036:040 JLINK_ReadMem (0x20001FDC, 0x0004 Bytes, ...) -- Read from C cache (4 bytes @ 0x20001FDC) -- Data:  00 00 00 00  returns 0x00 (0000ms, 0234ms total)
T39BC 036:040 JLINK_ReadMem (0x20001FE0, 0x0004 Bytes, ...) -- Read from C cache (4 bytes @ 0x20001FE0) -- Data:  00 00 00 00  returns 0x00 (0000ms, 0234ms total)
T39BC 036:040 JLINK_ReadMem (0x20001FE4, 0x0004 Bytes, ...) -- Read from C cache (4 bytes @ 0x20001FE4) -- Data:  00 00 00 00  returns 0x00 (0000ms, 0234ms total)
T39BC 036:040 JLINK_ReadMem (0x20001FE8, 0x0004 Bytes, ...) -- Read from C cache (4 bytes @ 0x20001FE8) -- Data:  00 00 00 00  returns 0x00 (0000ms, 0234ms total)
T39BC 036:040 JLINK_ReadMem (0x00000000, 0x0004 Bytes, ...) -- Unmirror addr 0x00000000 -- Read from C cache (4 bytes @ 0x08000000) -- Data:  40 20 00 20  returns 0x00 (0000ms, 0234ms total)
T4134 041:078 JLINK_ReadMem (0x08004E62, 0x0002 Bytes, ...) -- Read from C cache (2 bytes @ 0x08004E62) -- Data:  A8 19  returns 0x00 (0001ms, 0235ms total)
T4134 041:079 JLINK_ReadMem (0x08004E64, 0x003C Bytes, ...) -- Read from C cache (60 bytes @ 0x08004E64) -- Data:  20 71 20 46 61 68 FF F7 D0 FF 21 68 88 6B FD F7 ...  returns 0x00 (0000ms, 0235ms total)
T4134 041:079 JLINK_Step() -- Read from C cache (2 bytes @ 0x08004E62) -- Simulated  returns 0x00 (0001ms, 0236ms total)
T4134 041:080 JLINK_ReadReg(R15)  returns 0x08004E64 (0000ms, 0236ms total)
T4134 041:080 JLINK_ReadReg(XPSR)  returns 0x41000000 (0000ms, 0236ms total)
T4134 041:080 JLINK_Step() -- Read from C cache (2 bytes @ 0x08004E64) -- CPU_WriteMem(1 bytes @ 0x20001FF4) -- Invalidate MA0 status -- Simulated  returns 0x00 (0001ms, 0237ms total)
T4134 041:081 JLINK_ReadReg(R15)  returns 0x08004E66 (0000ms, 0237ms total)
T4134 041:081 JLINK_ReadReg(XPSR)  returns 0x41000000 (0000ms, 0237ms total)
T4134 041:081 JLINK_ReadReg(R0)  returns 0x00000000 (0000ms, 0237ms total)
T4134 041:081 JLINK_ReadReg(R1)  returns 0x20001FC0 (0000ms, 0237ms total)
T4134 041:081 JLINK_ReadReg(R2)  returns 0x200009F9 (0000ms, 0237ms total)
T4134 041:081 JLINK_ReadReg(R3)  returns 0x000000C1 (0000ms, 0237ms total)
T4134 041:081 JLINK_ReadReg(R4)  returns 0x20001FF0 (0000ms, 0237ms total)
T4134 041:081 JLINK_ReadReg(R5)  returns 0x00000000 (0000ms, 0237ms total)
T4134 041:081 JLINK_ReadReg(R6)  returns 0x00000000 (0000ms, 0237ms total)
T4134 041:081 JLINK_ReadReg(R7)  returns 0x00000000 (0000ms, 0237ms total)
T4134 041:081 JLINK_ReadReg(R8)  returns 0x00000000 (0000ms, 0237ms total)
T4134 041:081 JLINK_ReadReg(R9)  returns 0x20000160 (0000ms, 0237ms total)
T4134 041:081 JLINK_ReadReg(R10)  returns 0x08006CAC (0000ms, 0237ms total)
T4134 041:081 JLINK_ReadReg(R11)  returns 0x00000000 (0000ms, 0237ms total)
T4134 041:081 JLINK_ReadReg(R12)  returns 0x00000000 (0000ms, 0237ms total)
T4134 041:081 JLINK_ReadReg(R13)  returns 0x20001FD8 (0000ms, 0237ms total)
T4134 041:081 JLINK_ReadReg(R14)  returns 0x08001819 (0001ms, 0238ms total)
T4134 041:082 JLINK_ReadReg(R15)  returns 0x08004E66 (0000ms, 0238ms total)
T4134 041:082 JLINK_ReadReg(XPSR)  returns 0x41000000 (0000ms, 0238ms total)
T4134 041:082 JLINK_ReadReg(MSP)  returns 0x20001FD8 (0000ms, 0238ms total)
T4134 041:082 JLINK_ReadReg(PSP)  returns 0x20000800 (0000ms, 0238ms total)
T4134 041:082 JLINK_ReadReg(CFBP)  returns 0x00000000 (0000ms, 0238ms total)
T39BC 041:084 JLINK_ReadMem (0x20001FEC, 0x0004 Bytes, ...) -- CPU_ReadMem(64 bytes @ 0x20001FC0) -- Updating C cache (64 bytes @ 0x20001FC0) -- Read from C cache (4 bytes @ 0x20001FEC) -- Data:  19 18 00 08  returns 0x00 (0002ms, 0240ms total)
T39BC 041:086 JLINK_ReadMem (0x20001FD8, 0x0004 Bytes, ...) -- Read from C cache (4 bytes @ 0x20001FD8) -- Data:  58 10 00 20  returns 0x00 (0000ms, 0240ms total)
T39BC 041:086 JLINK_ReadMem (0x20001FDC, 0x0004 Bytes, ...) -- Read from C cache (4 bytes @ 0x20001FDC) -- Data:  00 00 00 00  returns 0x00 (0000ms, 0240ms total)
T39BC 041:086 JLINK_ReadMem (0x20001FE0, 0x0004 Bytes, ...) -- Read from C cache (4 bytes @ 0x20001FE0) -- Data:  00 00 00 00  returns 0x00 (0000ms, 0240ms total)
T39BC 041:086 JLINK_ReadMem (0x20001FE4, 0x0004 Bytes, ...) -- Read from C cache (4 bytes @ 0x20001FE4) -- Data:  00 00 00 00  returns 0x00 (0000ms, 0240ms total)
T39BC 041:086 JLINK_ReadMem (0x20001FE8, 0x0004 Bytes, ...) -- Read from C cache (4 bytes @ 0x20001FE8) -- Data:  00 00 00 00  returns 0x00 (0000ms, 0240ms total)
T39BC 041:086 JLINK_ReadMem (0x00000000, 0x0004 Bytes, ...)
                JLINK_ReadMemHW(0x00000000, 0x0004 Bytes, ...) -- CPU_ReadMem(4 bytes @ 0x00000000) -- Data:  40 20 00 20  returns 0x00 (0001ms, 0001ms total)
                JLINK_ReadMemHW(0x08000000, 0x0004 Bytes, ...) -- CPU_ReadMem(4 bytes @ 0x08000000) -- Data:  40 20 00 20  returns 0x00 (0000ms, 0001ms total)
                JLINK_WriteMemHW(0x00000000, 0x0004 Bytes, ...) -- Data:  01 00 01 00 -- CPU_WriteMem(4 bytes @ 0x00000000)  returns 0x04 (0001ms, 0002ms total)
                JLINK_ReadMemHW(0x00000000, 0x0004 Bytes, ...) -- CPU_ReadMem(4 bytes @ 0x00000000) -- Data:  40 20 00 20  returns 0x00 (0001ms, 0003ms total)
               -- MA0 is in flash -- Unmirror addr 0x00000000 -- Read from C cache (4 bytes @ 0x08000000) -- Data:  40 20 00 20  returns 0x00 (0003ms, 0243ms total)
T39BC 041:090 JLINK_ReadMem (0x08004E66, 0x0002 Bytes, ...) -- Read from C cache (2 bytes @ 0x08004E66) -- Data:  20 46  returns 0x00 (0000ms, 0243ms total)
T39BC 041:090 JLINK_ReadMem (0x08004E68, 0x003C Bytes, ...) -- Read from C cache (60 bytes @ 0x08004E68) -- Data:  61 68 FF F7 D0 FF 21 68 88 6B FD F7 5C F8 00 F0 ...  returns 0x00 (0000ms, 0243ms total)
T39BC 045:526 JLINK_ReadMem (0x20001FF4, 0x0001 Bytes, ...) -- Read from C cache (1 bytes @ 0x20001FF4) -- Data:  00  returns 0x00 (0001ms, 0244ms total)
T39BC 073:812 JLINK_ReadMem (0x20001FF5, 0x0001 Bytes, ...) -- Read from C cache (1 bytes @ 0x20001FF5) -- Data:  00  returns 0x00 (0001ms, 0245ms total)
T4134 082:989 JLINK_Step() -- Read from C cache (2 bytes @ 0x08004E66) -- Simulated  returns 0x00 (0001ms, 0246ms total)
T4134 082:990 JLINK_ReadReg(R15)  returns 0x08004E68 (0000ms, 0246ms total)
T4134 082:990 JLINK_ReadReg(XPSR)  returns 0x41000000 (0000ms, 0246ms total)
T4134 082:990 JLINK_Step() -- Read from C cache (2 bytes @ 0x08004E68) -- Read from C cache (4 bytes @ 0x20001FF4) -- Simulated  returns 0x00 (0000ms, 0246ms total)
T4134 082:990 JLINK_ReadReg(R15)  returns 0x08004E6A (0000ms, 0246ms total)
T4134 082:990 JLINK_ReadReg(XPSR)  returns 0x41000000 (0000ms, 0246ms total)
T4134 082:990 JLINK_Step() -- Read from C cache (2 bytes @ 0x08004E6A) -- Read from C cache (2 bytes @ 0x08004E6C) -- Simulated  returns 0x00 (0000ms, 0246ms total)
T4134 082:990 JLINK_ReadReg(R15)  returns 0x08004E0E (0000ms, 0246ms total)
T4134 082:990 JLINK_ReadReg(XPSR)  returns 0x41000000 (0000ms, 0246ms total)
T4134 082:991 JLINK_ReadReg(R0)  returns 0x20001FF0 (0000ms, 0246ms total)
T4134 082:991 JLINK_ReadReg(R1)  returns 0x00000000 (0000ms, 0246ms total)
T4134 082:991 JLINK_ReadReg(R2)  returns 0x200009F9 (0000ms, 0246ms total)
T4134 082:991 JLINK_ReadReg(R3)  returns 0x000000C1 (0000ms, 0246ms total)
T4134 082:991 JLINK_ReadReg(R4)  returns 0x20001FF0 (0000ms, 0246ms total)
T4134 082:991 JLINK_ReadReg(R5)  returns 0x00000000 (0000ms, 0246ms total)
T4134 082:991 JLINK_ReadReg(R6)  returns 0x00000000 (0000ms, 0246ms total)
T4134 082:991 JLINK_ReadReg(R7)  returns 0x00000000 (0000ms, 0246ms total)
T4134 082:991 JLINK_ReadReg(R8)  returns 0x00000000 (0000ms, 0246ms total)
T4134 082:991 JLINK_ReadReg(R9)  returns 0x20000160 (0000ms, 0246ms total)
T4134 082:991 JLINK_ReadReg(R10)  returns 0x08006CAC (0000ms, 0246ms total)
T4134 082:991 JLINK_ReadReg(R11)  returns 0x00000000 (0000ms, 0246ms total)
T4134 082:991 JLINK_ReadReg(R12)  returns 0x00000000 (0000ms, 0246ms total)
T4134 082:991 JLINK_ReadReg(R13)  returns 0x20001FD8 (0000ms, 0246ms total)
T4134 082:991 JLINK_ReadReg(R14)  returns 0x08004E6F (0000ms, 0246ms total)
T4134 082:991 JLINK_ReadReg(R15)  returns 0x08004E0E (0000ms, 0246ms total)
T4134 082:991 JLINK_ReadReg(XPSR)  returns 0x41000000 (0000ms, 0246ms total)
T4134 082:991 JLINK_ReadReg(MSP)  returns 0x20001FD8 (0000ms, 0246ms total)
T4134 082:991 JLINK_ReadReg(PSP)  returns 0x20000800 (0000ms, 0246ms total)
T4134 082:991 JLINK_ReadReg(CFBP)  returns 0x00000000 (0000ms, 0246ms total)
T39BC 082:993 JLINK_ReadMem (0x20001FEC, 0x0004 Bytes, ...) -- Read from C cache (4 bytes @ 0x20001FEC) -- Data:  19 18 00 08  returns 0x00 (0000ms, 0246ms total)
T39BC 082:993 JLINK_ReadMem (0x20001FD8, 0x0004 Bytes, ...) -- Read from C cache (4 bytes @ 0x20001FD8) -- Data:  58 10 00 20  returns 0x00 (0000ms, 0246ms total)
T39BC 082:993 JLINK_ReadMem (0x20001FDC, 0x0004 Bytes, ...) -- Read from C cache (4 bytes @ 0x20001FDC) -- Data:  00 00 00 00  returns 0x00 (0000ms, 0246ms total)
T39BC 082:993 JLINK_ReadMem (0x20001FE0, 0x0004 Bytes, ...) -- Read from C cache (4 bytes @ 0x20001FE0) -- Data:  00 00 00 00  returns 0x00 (0000ms, 0246ms total)
T39BC 082:993 JLINK_ReadMem (0x20001FE4, 0x0004 Bytes, ...) -- Read from C cache (4 bytes @ 0x20001FE4) -- Data:  00 00 00 00  returns 0x00 (0000ms, 0246ms total)
T39BC 082:993 JLINK_ReadMem (0x20001FE8, 0x0004 Bytes, ...) -- Read from C cache (4 bytes @ 0x20001FE8) -- Data:  00 00 00 00  returns 0x00 (0000ms, 0246ms total)
T39BC 082:993 JLINK_ReadMem (0x00000000, 0x0004 Bytes, ...) -- Unmirror addr 0x00000000 -- Read from C cache (4 bytes @ 0x08000000) -- Data:  40 20 00 20  returns 0x00 (0000ms, 0246ms total)
T39BC 082:996 JLINK_ReadMem (0x08004E0E, 0x0002 Bytes, ...) -- CPU_ReadMem(64 bytes @ 0x08004E00) -- Updating C cache (64 bytes @ 0x08004E00) -- Read from C cache (2 bytes @ 0x08004E0E) -- Data:  13 B5  returns 0x00 (0001ms, 0247ms total)
T39BC 082:997 JLINK_ReadMem (0x08004E10, 0x003C Bytes, ...) -- Read from C cache (60 bytes @ 0x08004E10) -- Data:  04 46 9D F8 04 20 02 F0 01 01 22 68 90 6A FD F7 ...  returns 0x00 (0000ms, 0247ms total)
T4134 084:219 JLINK_Step() -- Read from C cache (2 bytes @ 0x08004E0E) -- CPU_WriteMem(16 bytes @ 0x20001FC8) -- Simulated  returns 0x00 (0002ms, 0249ms total)
T4134 084:221 JLINK_ReadReg(R15)  returns 0x08004E10 (0000ms, 0249ms total)
T4134 084:221 JLINK_ReadReg(XPSR)  returns 0x41000000 (0000ms, 0249ms total)
T4134 084:221 JLINK_Step() -- Read from C cache (2 bytes @ 0x08004E10) -- Simulated  returns 0x00 (0000ms, 0249ms total)
T4134 084:221 JLINK_ReadReg(R15)  returns 0x08004E12 (0000ms, 0249ms total)
T4134 084:221 JLINK_ReadReg(XPSR)  returns 0x41000000 (0000ms, 0249ms total)
T4134 084:221 JLINK_ReadReg(R0)  returns 0x20001FF0 (0000ms, 0249ms total)
T4134 084:221 JLINK_ReadReg(R1)  returns 0x00000000 (0000ms, 0249ms total)
T4134 084:221 JLINK_ReadReg(R2)  returns 0x200009F9 (0000ms, 0249ms total)
T4134 084:221 JLINK_ReadReg(R3)  returns 0x000000C1 (0001ms, 0250ms total)
T4134 084:222 JLINK_ReadReg(R4)  returns 0x20001FF0 (0000ms, 0250ms total)
T4134 084:222 JLINK_ReadReg(R5)  returns 0x00000000 (0000ms, 0250ms total)
T4134 084:222 JLINK_ReadReg(R6)  returns 0x00000000 (0000ms, 0250ms total)
T4134 084:222 JLINK_ReadReg(R7)  returns 0x00000000 (0000ms, 0250ms total)
T4134 084:222 JLINK_ReadReg(R8)  returns 0x00000000 (0000ms, 0250ms total)
T4134 084:222 JLINK_ReadReg(R9)  returns 0x20000160 (0000ms, 0250ms total)
T4134 084:222 JLINK_ReadReg(R10)  returns 0x08006CAC (0000ms, 0250ms total)
T4134 084:222 JLINK_ReadReg(R11)  returns 0x00000000 (0000ms, 0250ms total)
T4134 084:222 JLINK_ReadReg(R12)  returns 0x00000000 (0000ms, 0250ms total)
T4134 084:222 JLINK_ReadReg(R13)  returns 0x20001FC8 (0000ms, 0250ms total)
T4134 084:222 JLINK_ReadReg(R14)  returns 0x08004E6F (0000ms, 0250ms total)
T4134 084:222 JLINK_ReadReg(R15)  returns 0x08004E12 (0000ms, 0250ms total)
T4134 084:222 JLINK_ReadReg(XPSR)  returns 0x41000000 (0000ms, 0250ms total)
T4134 084:222 JLINK_ReadReg(MSP)  returns 0x20001FC8 (0000ms, 0250ms total)
T4134 084:222 JLINK_ReadReg(PSP)  returns 0x20000800 (0000ms, 0250ms total)
T4134 084:222 JLINK_ReadReg(CFBP)  returns 0x00000000 (0000ms, 0250ms total)
T39BC 084:223 JLINK_ReadMem (0x20001FD4, 0x0004 Bytes, ...) -- CPU_ReadMem(64 bytes @ 0x20001FC0) -- Updating C cache (64 bytes @ 0x20001FC0) -- Read from C cache (4 bytes @ 0x20001FD4) -- Data:  6F 4E 00 08  returns 0x00 (0001ms, 0251ms total)
T39BC 084:224 JLINK_ReadMem (0x20001FD0, 0x0004 Bytes, ...) -- Read from C cache (4 bytes @ 0x20001FD0) -- Data:  F0 1F 00 20  returns 0x00 (0000ms, 0251ms total)
T39BC 084:224 JLINK_ReadMem (0x20001FEC, 0x0004 Bytes, ...) -- Read from C cache (4 bytes @ 0x20001FEC) -- Data:  19 18 00 08  returns 0x00 (0000ms, 0251ms total)
T39BC 084:224 JLINK_ReadMem (0x20001FD8, 0x0004 Bytes, ...) -- Read from C cache (4 bytes @ 0x20001FD8) -- Data:  58 10 00 20  returns 0x00 (0000ms, 0251ms total)
T39BC 084:224 JLINK_ReadMem (0x20001FDC, 0x0004 Bytes, ...) -- Read from C cache (4 bytes @ 0x20001FDC) -- Data:  00 00 00 00  returns 0x00 (0000ms, 0251ms total)
T39BC 084:224 JLINK_ReadMem (0x20001FE0, 0x0004 Bytes, ...) -- Read from C cache (4 bytes @ 0x20001FE0) -- Data:  00 00 00 00  returns 0x00 (0000ms, 0251ms total)
T39BC 084:224 JLINK_ReadMem (0x20001FE4, 0x0004 Bytes, ...) -- Read from C cache (4 bytes @ 0x20001FE4) -- Data:  00 00 00 00  returns 0x00 (0000ms, 0251ms total)
T39BC 084:224 JLINK_ReadMem (0x20001FE8, 0x0004 Bytes, ...) -- Read from C cache (4 bytes @ 0x20001FE8) -- Data:  00 00 00 00  returns 0x00 (0000ms, 0251ms total)
T39BC 084:224 JLINK_ReadMem (0x00000000, 0x0004 Bytes, ...) -- Unmirror addr 0x00000000 -- Read from C cache (4 bytes @ 0x08000000) -- Data:  40 20 00 20  returns 0x00 (0000ms, 0251ms total)
T39BC 084:226 JLINK_ReadMem (0x08004E12, 0x0002 Bytes, ...) -- Read from C cache (2 bytes @ 0x08004E12) -- Data:  9D F8  returns 0x00 (0000ms, 0251ms total)
T39BC 084:226 JLINK_ReadMem (0x08004E14, 0x003C Bytes, ...) -- Read from C cache (60 bytes @ 0x08004E14) -- Data:  04 20 02 F0 01 01 22 68 90 6A FD F7 77 F8 9D F8 ...  returns 0x00 (0000ms, 0251ms total)
T4134 085:619 JLINK_Step() -- Read from C cache (2 bytes @ 0x08004E12) -- Read from C cache (2 bytes @ 0x08004E14) -- Not simulated -- Invalidate MA0 status -- CPU_WriteMem(4 bytes @ 0xE0002008)  returns 0x00 (0007ms, 0258ms total)
T4134 085:626 JLINK_ReadReg(R15)  returns 0x08004E16 (0000ms, 0258ms total)
T4134 085:626 JLINK_ReadReg(XPSR)  returns 0x41000000 (0000ms, 0258ms total)
T4134 085:626 JLINK_Step() -- CPU_ReadMem(64 bytes @ 0x08004E00) -- Updating C cache (64 bytes @ 0x08004E00) -- Read from C cache (2 bytes @ 0x08004E16) -- Read from C cache (2 bytes @ 0x08004E18) -- Simulated  returns 0x00 (0001ms, 0259ms total)
T4134 085:627 JLINK_ReadReg(R15)  returns 0x08004E1A (0000ms, 0259ms total)
T4134 085:627 JLINK_ReadReg(XPSR)  returns 0x41000000 (0000ms, 0259ms total)
T4134 085:627 JLINK_Step() -- Read from C cache (2 bytes @ 0x08004E1A) -- CPU_ReadMem(64 bytes @ 0x20001FC0) -- Updating C cache (64 bytes @ 0x20001FC0) -- Read from C cache (4 bytes @ 0x20001FF0) -- Simulated  returns 0x00 (0001ms, 0260ms total)
T4134 085:628 JLINK_ReadReg(R15)  returns 0x08004E1C (0000ms, 0260ms total)
T4134 085:628 JLINK_ReadReg(XPSR)  returns 0x41000000 (0000ms, 0260ms total)
T4134 085:628 JLINK_Step() -- Read from C cache (2 bytes @ 0x08004E1C) -- CPU_ReadMem(64 bytes @ 0x20001080) -- Updating C cache (64 bytes @ 0x20001080) -- Read from C cache (4 bytes @ 0x20001080) -- Simulated  returns 0x00 (0001ms, 0261ms total)
T4134 085:629 JLINK_ReadReg(R15)  returns 0x08004E1E (0000ms, 0261ms total)
T4134 085:629 JLINK_ReadReg(XPSR)  returns 0x41000000 (0000ms, 0261ms total)
T4134 085:630 JLINK_SetBPEx(Addr = 0x08004E22, Type = 0xFFFFFFF2)  returns 0x00000002 (0000ms, 0262ms total)
T4134 085:630 JLINK_SetBPEx(Addr = 0x08004E5E, Type = 0xFFFFFFF2)  returns 0x00000003 (0000ms, 0262ms total)
T4134 085:630 JLINK_Go() -- CPU_WriteMem(4 bytes @ 0xE0002008) -- CPU_WriteMem(4 bytes @ 0xE000200C) (0002ms, 0264ms total)
T4134 085:732 JLINK_IsHalted()  returns TRUE (0002ms, 0266ms total)
T4134 085:734 JLINK_Halt()  returns 0x00 (0000ms, 0264ms total)
T4134 085:734 JLINK_IsHalted()  returns TRUE (0000ms, 0264ms total)
T4134 085:734 JLINK_IsHalted()  returns TRUE (0001ms, 0265ms total)
T4134 085:735 JLINK_IsHalted()  returns TRUE (0000ms, 0264ms total)
T4134 085:735 JLINK_ReadReg(R15)  returns 0x08004E22 (0000ms, 0264ms total)
T4134 085:735 JLINK_ReadReg(XPSR)  returns 0x81000000 (0000ms, 0264ms total)
T4134 085:735 JLINK_ClrBPEx(BPHandle = 0x00000002)  returns 0x00 (0000ms, 0264ms total)
T4134 085:735 JLINK_ClrBPEx(BPHandle = 0x00000003)  returns 0x00 (0000ms, 0264ms total)
T4134 085:735 JLINK_ReadMemU32(0xE000ED30, 0x0001 Items, ...) -- CPU_ReadMem(4 bytes @ 0xE000ED30) -- Data:  03 00 00 00  returns 0x01 (0000ms, 0264ms total)
T4134 085:735 JLINK_ReadMemU32(0xE0001028, 0x0001 Items, ...) -- CPU_ReadMem(4 bytes @ 0xE0001028) -- Data:  00 00 00 00  returns 0x01 (0001ms, 0265ms total)
T4134 085:736 JLINK_ReadMemU32(0xE0001038, 0x0001 Items, ...) -- CPU_ReadMem(4 bytes @ 0xE0001038) -- Data:  00 02 00 00  returns 0x01 (0001ms, 0266ms total)
T4134 085:737 JLINK_ReadMemU32(0xE0001048, 0x0001 Items, ...) -- CPU_ReadMem(4 bytes @ 0xE0001048) -- Data:  00 00 00 00  returns 0x01 (0000ms, 0266ms total)
T4134 085:737 JLINK_ReadMemU32(0xE0001058, 0x0001 Items, ...) -- CPU_ReadMem(4 bytes @ 0xE0001058) -- Data:  00 00 00 00  returns 0x01 (0001ms, 0267ms total)
T4134 085:738 JLINK_ReadReg(R0)  returns 0x40011000 (0000ms, 0267ms total)
T4134 085:738 JLINK_ReadReg(R1)  returns 0x00000100 (0000ms, 0267ms total)
T4134 085:738 JLINK_ReadReg(R2)  returns 0x20001058 (0000ms, 0267ms total)
T4134 085:738 JLINK_ReadReg(R3)  returns 0x000000C1 (0000ms, 0267ms total)
T4134 085:738 JLINK_ReadReg(R4)  returns 0x20001FF0 (0000ms, 0267ms total)
T4134 085:738 JLINK_ReadReg(R5)  returns 0x00000000 (0000ms, 0267ms total)
T4134 085:738 JLINK_ReadReg(R6)  returns 0x00000000 (0000ms, 0267ms total)
T4134 085:738 JLINK_ReadReg(R7)  returns 0x00000000 (0000ms, 0267ms total)
T4134 085:738 JLINK_ReadReg(R8)  returns 0x00000000 (0000ms, 0267ms total)
T4134 085:738 JLINK_ReadReg(R9)  returns 0x20000160 (0000ms, 0267ms total)
T4134 085:738 JLINK_ReadReg(R10)  returns 0x08006CAC (0000ms, 0267ms total)
T4134 085:738 JLINK_ReadReg(R11)  returns 0x00000000 (0000ms, 0267ms total)
T4134 085:738 JLINK_ReadReg(R12)  returns 0x00000000 (0000ms, 0267ms total)
T4134 085:738 JLINK_ReadReg(R13)  returns 0x20001FC8 (0000ms, 0267ms total)
T4134 085:738 JLINK_ReadReg(R14)  returns 0x08001F2D (0000ms, 0267ms total)
T4134 085:738 JLINK_ReadReg(R15)  returns 0x08004E22 (0000ms, 0267ms total)
T4134 085:738 JLINK_ReadReg(XPSR)  returns 0x81000000 (0000ms, 0267ms total)
T4134 085:738 JLINK_ReadReg(MSP)  returns 0x20001FC8 (0000ms, 0267ms total)
T4134 085:738 JLINK_ReadReg(PSP)  returns 0x20000800 (0000ms, 0267ms total)
T4134 085:738 JLINK_ReadReg(CFBP)  returns 0x00000000 (0000ms, 0267ms total)
T39BC 085:739 JLINK_ReadMem (0x20001FD4, 0x0004 Bytes, ...) -- CPU_ReadMem(64 bytes @ 0x20001FC0) -- Updating C cache (64 bytes @ 0x20001FC0) -- Read from C cache (4 bytes @ 0x20001FD4) -- Data:  6F 4E 00 08  returns 0x00 (0001ms, 0268ms total)
T39BC 085:740 JLINK_ReadMem (0x20001FD0, 0x0004 Bytes, ...) -- Read from C cache (4 bytes @ 0x20001FD0) -- Data:  F0 1F 00 20  returns 0x00 (0000ms, 0268ms total)
T39BC 085:740 JLINK_ReadMem (0x20001FEC, 0x0004 Bytes, ...) -- Read from C cache (4 bytes @ 0x20001FEC) -- Data:  19 18 00 08  returns 0x00 (0000ms, 0268ms total)
T39BC 085:740 JLINK_ReadMem (0x20001FD8, 0x0004 Bytes, ...) -- Read from C cache (4 bytes @ 0x20001FD8) -- Data:  58 10 00 20  returns 0x00 (0000ms, 0268ms total)
T39BC 085:740 JLINK_ReadMem (0x20001FDC, 0x0004 Bytes, ...) -- Read from C cache (4 bytes @ 0x20001FDC) -- Data:  00 00 00 00  returns 0x00 (0000ms, 0268ms total)
T39BC 085:740 JLINK_ReadMem (0x20001FE0, 0x0004 Bytes, ...) -- Read from C cache (4 bytes @ 0x20001FE0) -- Data:  00 00 00 00  returns 0x00 (0000ms, 0268ms total)
T39BC 085:740 JLINK_ReadMem (0x20001FE4, 0x0004 Bytes, ...) -- Read from C cache (4 bytes @ 0x20001FE4) -- Data:  00 00 00 00  returns 0x00 (0000ms, 0268ms total)
T39BC 085:740 JLINK_ReadMem (0x20001FE8, 0x0004 Bytes, ...) -- Read from C cache (4 bytes @ 0x20001FE8) -- Data:  00 00 00 00  returns 0x00 (0000ms, 0268ms total)
T39BC 085:740 JLINK_ReadMem (0x00000000, 0x0004 Bytes, ...)
                JLINK_ReadMemHW(0x00000000, 0x0004 Bytes, ...) -- CPU_ReadMem(4 bytes @ 0x00000000) -- Data:  40 20 00 20  returns 0x00 (0001ms, 0001ms total)
                JLINK_ReadMemHW(0x08000000, 0x0004 Bytes, ...) -- CPU_ReadMem(4 bytes @ 0x08000000) -- Data:  40 20 00 20  returns 0x00 (0000ms, 0001ms total)
                JLINK_WriteMemHW(0x00000000, 0x0004 Bytes, ...) -- Data:  01 00 01 00 -- CPU_WriteMem(4 bytes @ 0x00000000)  returns 0x04 (0001ms, 0002ms total)
                JLINK_ReadMemHW(0x00000000, 0x0004 Bytes, ...) -- CPU_ReadMem(4 bytes @ 0x00000000) -- Data:  40 20 00 20  returns 0x00 (0001ms, 0003ms total)
               -- MA0 is in flash -- Unmirror addr 0x00000000 -- CPU_ReadMem(64 bytes @ 0x08000000) -- Updating C cache (64 bytes @ 0x08000000) -- Read from C cache (4 bytes @ 0x08000000) -- Data:  40 20 00 20  returns 0x00 (0004ms, 0272ms total)
T39BC 085:745 JLINK_ReadMem (0x08004E22, 0x0002 Bytes, ...) -- CPU_ReadMem(64 bytes @ 0x08004E00) -- Updating C cache (64 bytes @ 0x08004E00) -- Read from C cache (2 bytes @ 0x08004E22) -- Data:  9D F8  returns 0x00 (0001ms, 0273ms total)
T39BC 085:746 JLINK_ReadMem (0x08004E24, 0x003C Bytes, ...) -- CPU_ReadMem(64 bytes @ 0x08004E40) -- Updating C cache (64 bytes @ 0x08004E40) -- Read from C cache (60 bytes @ 0x08004E24) -- Data:  04 20 C2 F3 40 01 22 68 D0 6A FD F7 6F F8 9D F8 ...  returns 0x00 (0001ms, 0274ms total)
T4134 086:180 JLINK_Step() -- Read from C cache (2 bytes @ 0x08004E22) -- Read from C cache (2 bytes @ 0x08004E24) -- Not simulated -- Invalidate MA0 status -- CPU_WriteMem(4 bytes @ 0xE0002008) -- CPU_WriteMem(4 bytes @ 0xE000200C)  returns 0x00 (0010ms, 0284ms total)
T4134 086:190 JLINK_ReadReg(R15)  returns 0x08004E26 (0000ms, 0284ms total)
T4134 086:190 JLINK_ReadReg(XPSR)  returns 0x81000000 (0000ms, 0284ms total)
T4134 086:190 JLINK_Step() -- CPU_ReadMem(64 bytes @ 0x08004E00) -- Updating C cache (64 bytes @ 0x08004E00) -- Read from C cache (2 bytes @ 0x08004E26) -- Read from C cache (2 bytes @ 0x08004E28) -- Not simulated  returns 0x00 (0015ms, 0299ms total)
T4134 086:205 JLINK_ReadReg(R15)  returns 0x08004E2A (0000ms, 0299ms total)
T4134 086:205 JLINK_ReadReg(XPSR)  returns 0x81000000 (0000ms, 0299ms total)
T4134 086:205 JLINK_Step() -- CPU_ReadMem(64 bytes @ 0x08004E00) -- Updating C cache (64 bytes @ 0x08004E00) -- Read from C cache (2 bytes @ 0x08004E2A) -- CPU_ReadMem(64 bytes @ 0x20001FC0) -- Updating C cache (64 bytes @ 0x20001FC0) -- Read from C cache (4 bytes @ 0x20001FF0) -- Simulated  returns 0x00 (0003ms, 0302ms total)
T4134 086:208 JLINK_ReadReg(R15)  returns 0x08004E2C (0000ms, 0302ms total)
T4134 086:208 JLINK_ReadReg(XPSR)  returns 0x81000000 (0000ms, 0302ms total)
T4134 086:208 JLINK_Step() -- Read from C cache (2 bytes @ 0x08004E2C) -- CPU_ReadMem(64 bytes @ 0x20001080) -- Updating C cache (64 bytes @ 0x20001080) -- Read from C cache (4 bytes @ 0x20001084) -- Simulated  returns 0x00 (0001ms, 0303ms total)
T4134 086:209 JLINK_ReadReg(R15)  returns 0x08004E2E (0000ms, 0303ms total)
T4134 086:209 JLINK_ReadReg(XPSR)  returns 0x81000000 (0000ms, 0303ms total)
T4134 086:209 JLINK_SetBPEx(Addr = 0x08004E32, Type = 0xFFFFFFF2)  returns 0x00000004 (0000ms, 0303ms total)
T4134 086:209 JLINK_SetBPEx(Addr = 0x08004E5E, Type = 0xFFFFFFF2)  returns 0x00000005 (0000ms, 0303ms total)
T4134 086:209 JLINK_Go() -- CPU_WriteMem(4 bytes @ 0xE0002008) -- CPU_WriteMem(4 bytes @ 0xE000200C) (0003ms, 0306ms total)
T4134 086:312 JLINK_IsHalted()  returns TRUE (0002ms, 0308ms total)
T4134 086:314 JLINK_Halt()  returns 0x00 (0000ms, 0306ms total)
T4134 086:314 JLINK_IsHalted()  returns TRUE (0001ms, 0307ms total)
T4134 086:315 JLINK_IsHalted()  returns TRUE (0000ms, 0306ms total)
